vgs,vsb,vds,total_fins,length,gm,cdd,vth,gds,id,cds,cgg,cgd,cgs,
0,0,0,2,14e-9,0,17.6675e-18,299.618e-3,31.3591e-9,13.922e-54,-3.2506e-21,40.8332e-18,9.9166e-18,9.9166e-18,
20e-3,0,0,2,14e-9,0,17.9429e-18,299.618e-3,57.6206e-9,-358.134e-18,-6.0028e-21,41.3896e-18,10.1948e-18,10.1948e-18,
40e-3,0,0,2,14e-9,0,18.2158e-18,299.618e-3,105.841e-9,-400.77e-18,-11.0796e-21,41.9455e-18,10.4727e-18,10.4727e-18,
60e-3,0,0,2,14e-9,0,18.4865e-18,299.618e-3,194.303e-9,-263.031e-18,-20.4292e-21,42.5056e-18,10.7528e-18,10.7528e-18,
80e-3,0,0,2,14e-9,0,18.7591e-18,299.618e-3,356.324e-9,-669.746e-18,-37.5959e-21,43.0851e-18,11.0425e-18,11.0425e-18,
100e-3,0,0,2,14e-9,0,19.0437e-18,299.618e-3,652.193e-9,-1.6633e-15,-68.9392e-21,43.7171e-18,11.3586e-18,11.3586e-18,
120e-3,0,0,2,14e-9,0,19.3608e-18,299.618e-3,1.1896e-6,-3.1523e-15,-125.589e-21,44.4646e-18,11.7323e-18,11.7323e-18,
140e-3,0,0,2,14e-9,0,19.7458e-18,299.618e-3,2.1565e-6,-5.2404e-15,-226.152e-21,45.4357e-18,12.2179e-18,12.2179e-18,
160e-3,0,0,2,14e-9,0,20.2543e-18,299.618e-3,3.8679e-6,-8.1209e-15,-399.254e-21,46.7988e-18,12.8994e-18,12.8994e-18,
180e-3,0,0,2,14e-9,0,20.9591e-18,299.618e-3,6.8162e-6,-12.1153e-15,-682.679e-21,48.7753e-18,13.8877e-18,13.8877e-18,
200e-3,0,0,2,14e-9,0,21.9298e-18,299.618e-3,11.6895e-6,-17.7268e-15,-1.1133e-18,51.5781e-18,15.2891e-18,15.2891e-18,
220e-3,0,0,2,14e-9,0,23.1908e-18,299.618e-3,19.2951e-6,-25.6715e-15,-1.7061e-18,55.2856e-18,17.1428e-18,17.1428e-18,
240e-3,0,0,2,14e-9,0,24.6869e-18,299.618e-3,30.365e-6,-36.8495e-15,-2.4364e-18,59.7384e-18,19.3692e-18,19.3692e-18,
260e-3,0,0,2,14e-9,0,26.3028e-18,299.618e-3,45.3343e-6,-52.2623e-15,-3.2479e-18,64.5934e-18,21.7967e-18,21.7967e-18,
280e-3,0,0,2,14e-9,0,27.9235e-18,299.618e-3,64.2439e-6,-72.9416e-15,-4.0827e-18,69.5042e-18,24.2521e-18,24.2521e-18,
300e-3,0,0,2,14e-9,0,29.4766e-18,299.618e-3,86.8063e-6,-99.9379e-15,-4.9022e-18,74.2496e-18,26.6248e-18,26.6248e-18,
320e-3,0,0,2,14e-9,0,30.9344e-18,299.618e-3,112.543e-6,-134.359e-15,-5.6895e-18,78.7398e-18,28.8699e-18,28.8699e-18,
340e-3,0,0,2,14e-9,0,32.2957e-18,299.618e-3,140.904e-6,-177.425e-15,-6.4404e-18,82.9642e-18,30.9821e-18,30.9821e-18,
360e-3,0,0,2,14e-9,0,33.5697e-18,299.618e-3,171.342e-6,-230.51e-15,-7.1561e-18,86.9434e-18,32.9717e-18,32.9717e-18,
380e-3,0,0,2,14e-9,0,34.7673e-18,299.618e-3,203.351e-6,-295.186e-15,-7.8389e-18,90.7041e-18,34.8521e-18,34.8521e-18,
400e-3,0,0,2,14e-9,0,35.8979e-18,299.618e-3,236.481e-6,-373.255e-15,-8.4908e-18,94.2693e-18,36.6346e-18,36.6346e-18,
420e-3,0,0,2,14e-9,0,36.9688e-18,299.618e-3,270.344e-6,-466.779e-15,-9.1131e-18,97.6555e-18,38.3278e-18,38.3278e-18,
440e-3,0,0,2,14e-9,0,37.9849e-18,299.618e-3,304.613e-6,-578.119e-15,-9.7063e-18,100.874e-18,39.9372e-18,39.9372e-18,
460e-3,0,0,2,14e-9,0,38.9501e-18,299.618e-3,339.017e-6,-709.973e-15,-10.271e-18,103.934e-18,41.467e-18,41.467e-18,
480e-3,0,0,2,14e-9,0,39.8669e-18,299.618e-3,373.335e-6,-865.416e-15,-10.8071e-18,106.84e-18,42.9199e-18,42.9198e-18,
500e-3,0,0,2,14e-9,0,40.7374e-18,299.618e-3,407.389e-6,-1.0479e-12,-11.3148e-18,109.596e-18,44.2981e-18,44.2981e-18,
520e-3,0,0,2,14e-9,0,41.5634e-18,299.618e-3,441.039e-6,-1.2615e-12,-11.7944e-18,112.208e-18,45.6038e-18,45.6038e-18,
540e-3,0,0,2,14e-9,0,42.3465e-18,299.618e-3,474.176e-6,-1.5108e-12,-12.2464e-18,114.678e-18,46.8388e-18,46.8388e-18,
560e-3,0,0,2,14e-9,0,43.0882e-18,299.618e-3,506.717e-6,-1.8007e-12,-12.6712e-18,117.011e-18,48.0053e-18,48.0053e-18,
580e-3,0,0,2,14e-9,0,43.79e-18,299.618e-3,538.603e-6,-2.1373e-12,-13.0696e-18,119.211e-18,49.1055e-18,49.1055e-18,
600e-3,0,0,2,14e-9,0,44.4535e-18,299.618e-3,569.789e-6,-2.5271e-12,-13.4423e-18,121.284e-18,50.1418e-18,50.1418e-18,
620e-3,0,0,2,14e-9,0,45.0803e-18,299.618e-3,600.247e-6,-2.9776e-12,-13.7905e-18,123.233e-18,51.1167e-18,51.1167e-18,
640e-3,0,0,2,14e-9,0,45.6719e-18,299.618e-3,629.959e-6,-3.4973e-12,-14.1151e-18,125.066e-18,52.0329e-18,52.0329e-18,
660e-3,0,0,2,14e-9,0,46.2301e-18,299.618e-3,658.917e-6,-4.0958e-12,-14.4172e-18,126.786e-18,52.8932e-18,52.8932e-18,
680e-3,0,0,2,14e-9,0,46.7563e-18,299.618e-3,687.119e-6,-4.7840e-12,-14.698e-18,128.4e-18,53.7002e-18,53.7002e-18,
700e-3,0,0,2,14e-9,0,47.2524e-18,299.618e-3,714.571e-6,-5.5741e-12,-14.9585e-18,129.914e-18,54.4568e-18,54.4568e-18,
720e-3,0,0,2,14e-9,0,47.7198e-18,299.618e-3,741.28e-6,-6.4800e-12,-15.2001e-18,131.331e-18,55.1657e-18,55.1657e-18,
740e-3,0,0,2,14e-9,0,48.1601e-18,299.618e-3,767.258e-6,-7.5174e-12,-15.4237e-18,132.659e-18,55.8297e-18,55.8297e-18,
760e-3,0,0,2,14e-9,0,48.5749e-18,299.618e-3,792.521e-6,-8.7039e-12,-15.6305e-18,133.903e-18,56.4513e-18,56.4513e-18,
780e-3,0,0,2,14e-9,0,48.9656e-18,299.618e-3,817.083e-6,-10.0595e-12,-15.8217e-18,135.066e-18,57.0332e-18,57.0332e-18,
800e-3,0,0,2,14e-9,0,49.3336e-18,299.618e-3,840.963e-6,-11.6065e-12,-15.9982e-18,136.155e-18,57.5777e-18,57.5777e-18,
0,0,0,6,14e-9,0,41.3516e-18,301.345e-3,88.9992e-9,4.7263e-54,-9.2530e-21,122.497e-18,29.7483e-18,29.7483e-18,
20e-3,0,0,6,14e-9,0,42.177e-18,301.345e-3,163.534e-9,-1.0740e-15,-17.0876e-21,124.163e-18,30.5817e-18,30.5817e-18,
40e-3,0,0,6,14e-9,0,42.994e-18,301.345e-3,300.4e-9,-1.2009e-15,-31.5412e-21,125.826e-18,31.4131e-18,31.4131e-18,
60e-3,0,0,6,14e-9,0,43.8033e-18,301.345e-3,551.51e-9,-785.443e-18,-58.165e-21,127.498e-18,32.249e-18,32.249e-18,
80e-3,0,0,6,14e-9,0,44.6159e-18,301.345e-3,1.0115e-6,-2.0003e-15,-107.065e-21,129.221e-18,33.1104e-18,33.1104e-18,
100e-3,0,0,6,14e-9,0,45.4606e-18,301.345e-3,1.8518e-6,-4.9698e-15,-196.405e-21,131.089e-18,34.0445e-18,34.0445e-18,
120e-3,0,0,6,14e-9,0,46.3954e-18,301.345e-3,3.3789e-6,-9.4128e-15,-358.06e-21,133.282e-18,35.1409e-18,35.1409e-18,
140e-3,0,0,6,14e-9,0,47.5225e-18,301.345e-3,6.1295e-6,-15.6287e-15,-645.594e-21,136.111e-18,36.5556e-18,36.5556e-18,
160e-3,0,0,6,14e-9,0,49.0033e-18,301.345e-3,11.0067e-6,-24.1764e-15,-1.1421e-18,140.066e-18,38.533e-18,38.533e-18,
180e-3,0,0,6,14e-9,0,51.0536e-18,301.345e-3,19.4331e-6,-35.9865e-15,-1.9595e-18,145.801e-18,41.4006e-18,41.4006e-18,
200e-3,0,0,6,14e-9,0,53.8876e-18,301.345e-3,33.4195e-6,-52.5249e-15,-3.2107e-18,153.972e-18,45.4859e-18,45.4859e-18,
220e-3,0,0,6,14e-9,0,57.5951e-18,301.345e-3,55.3688e-6,-75.8961e-15,-4.9491e-18,164.864e-18,50.9318e-18,50.9318e-18,
240e-3,0,0,6,14e-9,0,62.0322e-18,301.345e-3,87.519e-6,-108.772e-15,-7.1112e-18,178.062e-18,57.531e-18,57.531e-18,
260e-3,0,0,6,14e-9,0,66.8618e-18,301.345e-3,131.267e-6,-154.153e-15,-9.5333e-18,192.565e-18,64.7827e-18,64.7827e-18,
280e-3,0,0,6,14e-9,0,71.7315e-18,301.345e-3,186.836e-6,-215.137e-15,-12.0381e-18,207.314e-18,72.1572e-18,72.1572e-18,
300e-3,0,0,6,14e-9,0,76.4116e-18,301.345e-3,253.435e-6,-294.875e-15,-14.5044e-18,221.607e-18,79.3036e-18,79.3036e-18,
320e-3,0,0,6,14e-9,0,80.8092e-18,301.345e-3,329.667e-6,-396.677e-15,-16.8762e-18,235.146e-18,86.0729e-18,86.0729e-18,
340e-3,0,0,6,14e-9,0,84.9158e-18,301.345e-3,413.895e-6,-524.17e-15,-19.1387e-18,247.884e-18,92.442e-18,92.442e-18,
360e-3,0,0,6,14e-9,0,88.7576e-18,301.345e-3,504.476e-6,-681.444e-15,-21.2947e-18,259.88e-18,98.4399e-18,98.4399e-18,
380e-3,0,0,6,14e-9,0,92.3677e-18,301.345e-3,599.881e-6,-873.168e-15,-23.3515e-18,271.213e-18,104.107e-18,104.107e-18,
400e-3,0,0,6,14e-9,0,95.7749e-18,301.345e-3,698.75e-6,-1.1046e-12,-25.315e-18,281.955e-18,109.477e-18,109.477e-18,
420e-3,0,0,6,14e-9,0,99.0012e-18,301.345e-3,799.909e-6,-1.3821e-12,-27.1893e-18,292.156e-18,114.578e-18,114.578e-18,
440e-3,0,0,6,14e-9,0,102.062e-18,301.345e-3,902.362e-6,-1.7125e-12,-28.9765e-18,301.853e-18,119.426e-18,119.426e-18,
460e-3,0,0,6,14e-9,0,104.97e-18,301.345e-3,1.0052e-3,-2.1039e-12,-30.6775e-18,311.069e-18,124.035e-18,124.035e-18,
480e-3,0,0,6,14e-9,0,107.731e-18,301.345e-3,1.108e-3,-2.5653e-12,-32.2929e-18,319.824e-18,128.412e-18,128.412e-18,
500e-3,0,0,6,14e-9,0,110.354e-18,301.345e-3,1.2099e-3,-3.1073e-12,-33.8231e-18,328.129e-18,132.565e-18,132.565e-18,
520e-3,0,0,6,14e-9,0,112.842e-18,301.345e-3,1.3107e-3,-3.7416e-12,-35.269e-18,335.998e-18,136.499e-18,136.499e-18,
540e-3,0,0,6,14e-9,0,115.202e-18,301.345e-3,1.4100e-3,-4.4818e-12,-36.6316e-18,343.442e-18,140.221e-18,140.221e-18,
560e-3,0,0,6,14e-9,0,117.437e-18,301.345e-3,1.5075e-3,-5.3431e-12,-37.9127e-18,350.474e-18,143.737e-18,143.737e-18,
580e-3,0,0,6,14e-9,0,119.552e-18,301.345e-3,1.6031e-3,-6.3429e-12,-39.1143e-18,357.107e-18,147.054e-18,147.054e-18,
600e-3,0,0,6,14e-9,0,121.551e-18,301.345e-3,1.6966e-3,-7.5008e-12,-40.2389e-18,363.356e-18,150.178e-18,150.178e-18,
620e-3,0,0,6,14e-9,0,123.441e-18,301.345e-3,1.788e-3,-8.8392e-12,-41.2894e-18,369.235e-18,153.117e-18,153.117e-18,
640e-3,0,0,6,14e-9,0,125.224e-18,301.345e-3,1.8771e-3,-10.3833e-12,-42.2689e-18,374.76e-18,155.88e-18,155.88e-18,
660e-3,0,0,6,14e-9,0,126.906e-18,301.345e-3,1.9639e-3,-12.1616e-12,-43.1806e-18,379.949e-18,158.474e-18,158.474e-18,
680e-3,0,0,6,14e-9,0,128.493e-18,301.345e-3,2.0485e-3,-14.2064e-12,-44.028e-18,384.816e-18,160.908e-18,160.908e-18,
700e-3,0,0,6,14e-9,0,129.988e-18,301.345e-3,2.1308e-3,-16.5542e-12,-44.8146e-18,389.38e-18,163.19e-18,163.19e-18,
720e-3,0,0,6,14e-9,0,131.397e-18,301.345e-3,2.2109e-3,-19.2463e-12,-45.5437e-18,393.657e-18,165.328e-18,165.328e-18,
740e-3,0,0,6,14e-9,0,132.725e-18,301.345e-3,2.2889e-3,-22.3291e-12,-46.2189e-18,397.662e-18,167.331e-18,167.331e-18,
760e-3,0,0,6,14e-9,0,133.975e-18,301.345e-3,2.3647e-3,-25.8551e-12,-46.8435e-18,401.412e-18,169.206e-18,169.206e-18,
780e-3,0,0,6,14e-9,0,135.153e-18,301.345e-3,2.4383e-3,-29.8837e-12,-47.4207e-18,404.922e-18,170.961e-18,170.961e-18,
800e-3,0,0,6,14e-9,0,136.263e-18,301.345e-3,2.5100e-3,-34.4816e-12,-47.9536e-18,408.207e-18,172.604e-18,172.604e-18,
0,0,0,10,14e-9,0,68.9193e-18,301.345e-3,148.332e-9,7.8772e-54,-15.4217e-21,204.161e-18,49.5806e-18,49.5806e-18,
20e-3,0,0,10,14e-9,0,70.2951e-18,301.345e-3,272.557e-9,-1.7900e-15,-28.4794e-21,206.939e-18,50.9694e-18,50.9694e-18,
40e-3,0,0,10,14e-9,0,71.6567e-18,301.345e-3,500.667e-9,-2.0016e-15,-52.5687e-21,209.71e-18,52.3551e-18,52.3551e-18,
60e-3,0,0,10,14e-9,0,73.0054e-18,301.345e-3,919.183e-9,-1.3090e-15,-96.9416e-21,212.497e-18,53.7483e-18,53.7483e-18,
80e-3,0,0,10,14e-9,0,74.3598e-18,301.345e-3,1.6858e-6,-3.3338e-15,-178.442e-21,215.368e-18,55.1841e-18,55.1841e-18,
100e-3,0,0,10,14e-9,0,75.7677e-18,301.345e-3,3.0863e-6,-8.2830e-15,-327.342e-21,218.482e-18,56.7409e-18,56.7409e-18,
120e-3,0,0,10,14e-9,0,77.3256e-18,301.345e-3,5.6316e-6,-15.6881e-15,-596.766e-21,222.136e-18,58.5682e-18,58.5682e-18,
140e-3,0,0,10,14e-9,0,79.2042e-18,301.345e-3,10.216e-6,-26.0479e-15,-1.0759e-18,226.852e-18,60.926e-18,60.926e-18,
160e-3,0,0,10,14e-9,0,81.6721e-18,301.345e-3,18.3445e-6,-40.2939e-15,-1.9036e-18,233.443e-18,64.2216e-18,64.2216e-18,
180e-3,0,0,10,14e-9,0,85.0893e-18,301.345e-3,32.3885e-6,-59.9775e-15,-3.2658e-18,243.002e-18,69.0011e-18,69.0011e-18,
200e-3,0,0,10,14e-9,0,89.8126e-18,301.345e-3,55.6991e-6,-87.5416e-15,-5.3512e-18,256.62e-18,75.8098e-18,75.8098e-18,
220e-3,0,0,10,14e-9,0,95.9918e-18,301.345e-3,92.2814e-6,-126.494e-15,-8.2486e-18,274.773e-18,84.8863e-18,84.8863e-18,
240e-3,0,0,10,14e-9,0,103.387e-18,301.345e-3,145.865e-6,-181.287e-15,-11.8521e-18,296.77e-18,95.885e-18,95.885e-18,
260e-3,0,0,10,14e-9,0,111.436e-18,301.345e-3,218.779e-6,-256.921e-15,-15.889e-18,320.942e-18,107.971e-18,107.971e-18,
280e-3,0,0,10,14e-9,0,119.552e-18,301.345e-3,311.394e-6,-358.562e-15,-20.0636e-18,345.524e-18,120.262e-18,120.262e-18,
300e-3,0,0,10,14e-9,0,127.353e-18,301.345e-3,422.392e-6,-491.459e-15,-24.174e-18,369.345e-18,132.173e-18,132.173e-18,
320e-3,0,0,10,14e-9,0,134.682e-18,301.345e-3,549.445e-6,-661.128e-15,-28.1269e-18,391.91e-18,143.455e-18,143.455e-18,
340e-3,0,0,10,14e-9,0,141.526e-18,301.345e-3,689.825e-6,-873.617e-15,-31.8978e-18,413.14e-18,154.07e-18,154.07e-18,
360e-3,0,0,10,14e-9,0,147.929e-18,301.345e-3,840.793e-6,-1.1357e-12,-35.4912e-18,433.133e-18,164.067e-18,164.067e-18,
380e-3,0,0,10,14e-9,0,153.946e-18,301.345e-3,999.801e-6,-1.4552e-12,-38.9192e-18,452.022e-18,173.511e-18,173.511e-18,
400e-3,0,0,10,14e-9,0,159.625e-18,301.345e-3,1.1645e-3,-1.8411e-12,-42.1917e-18,469.925e-18,182.462e-18,182.462e-18,
420e-3,0,0,10,14e-9,0,165.002e-18,301.345e-3,1.3331e-3,-2.3035e-12,-45.3156e-18,486.927e-18,190.963e-18,190.963e-18,
440e-3,0,0,10,14e-9,0,170.104e-18,301.345e-3,1.5039e-3,-2.8542e-12,-48.2942e-18,503.088e-18,199.044e-18,199.044e-18,
460e-3,0,0,10,14e-9,0,174.949e-18,301.345e-3,1.6754e-3,-3.5065e-12,-51.1292e-18,518.449e-18,206.724e-18,206.724e-18,
480e-3,0,0,10,14e-9,0,179.552e-18,301.345e-3,1.8466e-3,-4.2755e-12,-53.8215e-18,533.039e-18,214.02e-18,214.02e-18,
500e-3,0,0,10,14e-9,0,183.923e-18,301.345e-3,2.0166e-3,-5.1788e-12,-56.3719e-18,546.882e-18,220.941e-18,220.941e-18,
520e-3,0,0,10,14e-9,0,188.071e-18,301.345e-3,2.1846e-3,-6.2361e-12,-58.7816e-18,559.997e-18,227.498e-18,227.498e-18,
540e-3,0,0,10,14e-9,0,192.003e-18,301.345e-3,2.3501e-3,-7.4697e-12,-61.0527e-18,572.404e-18,233.702e-18,233.702e-18,
560e-3,0,0,10,14e-9,0,195.728e-18,301.345e-3,2.5126e-3,-8.9052e-12,-63.1878e-18,584.124e-18,239.562e-18,239.562e-18,
580e-3,0,0,10,14e-9,0,199.253e-18,301.345e-3,2.6719e-3,-10.5715e-12,-65.1904e-18,595.179e-18,245.089e-18,245.089e-18,
600e-3,0,0,10,14e-9,0,202.586e-18,301.345e-3,2.8277e-3,-12.5014e-12,-67.0648e-18,605.593e-18,250.296e-18,250.296e-18,
620e-3,0,0,10,14e-9,0,205.734e-18,301.345e-3,2.98e-3,-14.7321e-12,-68.8156e-18,615.391e-18,255.196e-18,255.196e-18,
640e-3,0,0,10,14e-9,0,208.706e-18,301.345e-3,3.1285e-3,-17.3055e-12,-70.4481e-18,624.601e-18,259.8e-18,259.8e-18,
660e-3,0,0,10,14e-9,0,211.51e-18,301.345e-3,3.2732e-3,-20.2693e-12,-71.9677e-18,633.248e-18,264.124e-18,264.124e-18,
680e-3,0,0,10,14e-9,0,214.154e-18,301.345e-3,3.4142e-3,-23.6773e-12,-73.38e-18,641.361e-18,268.18e-18,268.18e-18,
700e-3,0,0,10,14e-9,0,216.647e-18,301.345e-3,3.5514e-3,-27.5904e-12,-74.6909e-18,648.967e-18,271.984e-18,271.984e-18,
720e-3,0,0,10,14e-9,0,218.995e-18,301.345e-3,3.6849e-3,-32.0771e-12,-75.9062e-18,656.094e-18,275.547e-18,275.547e-18,
740e-3,0,0,10,14e-9,0,221.208e-18,301.345e-3,3.8148e-3,-37.2151e-12,-77.0315e-18,662.77e-18,278.885e-18,278.885e-18,
760e-3,0,0,10,14e-9,0,223.292e-18,301.345e-3,3.9411e-3,-43.0919e-12,-78.0724e-18,669.02e-18,282.01e-18,282.01e-18,
780e-3,0,0,10,14e-9,0,225.255e-18,301.345e-3,4.0639e-3,-49.8062e-12,-79.0344e-18,674.87e-18,284.935e-18,284.935e-18,
800e-3,0,0,10,14e-9,0,227.104e-18,301.345e-3,4.1833e-3,-57.4693e-12,-79.9227e-18,680.346e-18,287.673e-18,287.673e-18,
0,0,0,20,14e-9,0,145.596e-18,306.421e-3,252.004e-9,40.4475e-54,-26.4309e-21,408.296e-18,99.1478e-18,99.1478e-18,
20e-3,0,0,20,14e-9,0,148.34e-18,306.421e-3,463.076e-9,-3.5769e-15,-48.8149e-21,413.829e-18,101.914e-18,101.914e-18,
40e-3,0,0,20,14e-9,0,151.05e-18,306.421e-3,850.717e-9,-3.9915e-15,-90.1214e-21,419.33e-18,104.665e-18,104.665e-18,
60e-3,0,0,20,14e-9,0,153.722e-18,306.421e-3,1.5621e-6,-2.5858e-15,-166.247e-21,424.827e-18,107.413e-18,107.413e-18,
80e-3,0,0,20,14e-9,0,156.385e-18,306.421e-3,2.8659e-6,-6.5889e-15,-306.2e-21,430.432e-18,110.216e-18,110.216e-18,
100e-3,0,0,20,14e-9,0,159.118e-18,306.421e-3,5.2497e-6,-16.3863e-15,-562.32e-21,436.41e-18,113.205e-18,113.205e-18,
120e-3,0,0,20,14e-9,0,162.087e-18,306.421e-3,9.5890e-6,-30.9841e-15,-1.0271e-18,443.278e-18,116.639e-18,116.639e-18,
140e-3,0,0,20,14e-9,0,165.593e-18,306.421e-3,17.4265e-6,-51.2732e-15,-1.8583e-18,451.953e-18,120.976e-18,120.976e-18,
160e-3,0,0,20,14e-9,0,170.123e-18,306.421e-3,31.3899e-6,-78.9245e-15,-3.3068e-18,463.91e-18,126.955e-18,126.955e-18,
180e-3,0,0,20,14e-9,0,176.361e-18,306.421e-3,55.7034e-6,-116.732e-15,-5.7253e-18,481.222e-18,135.611e-18,135.611e-18,
200e-3,0,0,20,14e-9,0,185.055e-18,306.421e-3,96.5342e-6,-169.158e-15,-9.5057e-18,506.171e-18,148.086e-18,148.086e-18,
220e-3,0,0,20,14e-9,0,196.655e-18,306.421e-3,161.625e-6,-242.772e-15,-14.8993e-18,540.16e-18,165.08e-18,165.08e-18,
240e-3,0,0,20,14e-9,0,210.893e-18,306.421e-3,258.732e-6,-346.174e-15,-21.8e-18,582.436e-18,186.218e-18,186.218e-18,
260e-3,0,0,20,14e-9,0,226.759e-18,306.421e-3,393.352e-6,-489.278e-15,-29.724e-18,630.017e-18,210.008e-18,210.008e-18,
280e-3,0,0,20,14e-9,0,243.033e-18,306.421e-3,567.213e-6,-682.46e-15,-38.0609e-18,679.238e-18,234.619e-18,234.619e-18,
300e-3,0,0,20,14e-9,0,258.823e-18,306.421e-3,778.444e-6,-936.227e-15,-46.3482e-18,727.393e-18,258.697e-18,258.697e-18,
320e-3,0,0,20,14e-9,0,273.717e-18,306.421e-3,1.0228e-3,-1.2614e-12,-54.3492e-18,773.183e-18,281.592e-18,281.592e-18,
340e-3,0,0,20,14e-9,0,287.633e-18,306.421e-3,1.2950e-3,-1.6700e-12,-61.9885e-18,816.293e-18,303.147e-18,303.147e-18,
360e-3,0,0,20,14e-9,0,300.64e-18,306.421e-3,1.5895e-3,-2.1752e-12,-69.2663e-18,856.863e-18,323.431e-18,323.431e-18,
380e-3,0,0,20,14e-9,0,312.847e-18,306.421e-3,1.9013e-3,-2.7921e-12,-76.2055e-18,895.156e-18,342.578e-18,342.578e-18,
400e-3,0,0,20,14e-9,0,324.357e-18,306.421e-3,2.2256e-3,-3.5381e-12,-82.8283e-18,931.421e-18,360.71e-18,360.71e-18,
420e-3,0,0,20,14e-9,0,335.248e-18,306.421e-3,2.5585e-3,-4.4330e-12,-89.1499e-18,965.845e-18,377.923e-18,377.923e-18,
440e-3,0,0,20,14e-9,0,345.577e-18,306.421e-3,2.8964e-3,-5.4995e-12,-95.179e-18,998.562e-18,394.281e-18,394.281e-18,
460e-3,0,0,20,14e-9,0,355.385e-18,306.421e-3,3.2365e-3,-6.7636e-12,-100.92e-18,1.0296e-15,409.83e-18,409.83e-18,
480e-3,0,0,20,14e-9,0,364.703e-18,306.421e-3,3.5765e-3,-8.2550e-12,-106.374e-18,1.0592e-15,424.603e-18,424.603e-18,
500e-3,0,0,20,14e-9,0,373.552e-18,306.421e-3,3.9145e-3,-10.0074e-12,-111.544e-18,1.0872e-15,438.622e-18,438.622e-18,
520e-3,0,0,20,14e-9,0,381.951e-18,306.421e-3,4.2489e-3,-12.0592e-12,-116.432e-18,1.1138e-15,451.909e-18,451.909e-18,
540e-3,0,0,20,14e-9,0,389.917e-18,306.421e-3,4.5786e-3,-14.4542e-12,-121.041e-18,1.1389e-15,464.483e-18,464.483e-18,
560e-3,0,0,20,14e-9,0,397.464e-18,306.421e-3,4.9027e-3,-17.242e-12,-125.377e-18,1.1627e-15,476.366e-18,476.366e-18,
580e-3,0,0,20,14e-9,0,404.607e-18,306.421e-3,5.2205e-3,-20.4788e-12,-129.446e-18,1.1851e-15,487.578e-18,487.578e-18,
600e-3,0,0,20,14e-9,0,411.363e-18,306.421e-3,5.5316e-3,-24.2285e-12,-133.256e-18,1.2062e-15,498.144e-18,498.144e-18,
620e-3,0,0,20,14e-9,0,417.746e-18,306.421e-3,5.8355e-3,-28.5635e-12,-136.817e-18,1.2261e-15,508.088e-18,508.088e-18,
640e-3,0,0,20,14e-9,0,423.774e-18,306.421e-3,6.1322e-3,-33.5656e-12,-140.138e-18,1.2448e-15,517.437e-18,517.437e-18,
660e-3,0,0,20,14e-9,0,429.461e-18,306.421e-3,6.4214e-3,-39.3275e-12,-143.231e-18,1.2624e-15,526.217e-18,526.217e-18,
680e-3,0,0,20,14e-9,0,434.824e-18,306.421e-3,6.7031e-3,-45.9539e-12,-146.107e-18,1.2789e-15,534.456e-18,534.456e-18,
700e-3,0,0,20,14e-9,0,439.881e-18,306.421e-3,6.9774e-3,-53.5634e-12,-148.776e-18,1.2943e-15,542.182e-18,542.182e-18,
720e-3,0,0,20,14e-9,0,444.645e-18,306.421e-3,7.2443e-3,-62.2897e-12,-151.252e-18,1.3088e-15,549.423e-18,549.423e-18,
740e-3,0,0,20,14e-9,0,449.134e-18,306.421e-3,7.5040e-3,-72.2839e-12,-153.545e-18,1.3224e-15,556.205e-18,556.205e-18,
760e-3,0,0,20,14e-9,0,453.363e-18,306.421e-3,7.7566e-3,-83.7164e-12,-155.667e-18,1.3351e-15,562.555e-18,562.555e-18,
780e-3,0,0,20,14e-9,0,457.347e-18,306.421e-3,8.0021e-3,-96.7796e-12,-157.628e-18,1.347e-15,568.5e-18,568.5e-18,
800e-3,0,0,20,14e-9,0,461.099e-18,306.421e-3,8.2409e-3,-111.69e-12,-159.44e-18,1.3581e-15,574.064e-18,574.064e-18,
0,0,0,40,14e-9,0,275.649e-18,309.595e-3,444.7e-9,31.5089e-54,-47.9973e-21,816.562e-18,198.281e-18,198.281e-18,
20e-3,0,0,40,14e-9,0,281.129e-18,309.595e-3,817.191e-9,-7.1503e-15,-88.6506e-21,827.603e-18,203.801e-18,203.801e-18,
40e-3,0,0,40,14e-9,0,286.533e-18,309.595e-3,1.5013e-6,-7.9701e-15,-163.682e-21,838.56e-18,209.28e-18,209.28e-18,
60e-3,0,0,40,14e-9,0,291.85e-18,309.595e-3,2.7570e-6,-5.1361e-15,-302e-21,849.47e-18,214.735e-18,214.735e-18,
80e-3,0,0,40,14e-9,0,297.124e-18,309.595e-3,5.0591e-6,-13.091e-15,-556.418e-21,860.528e-18,220.264e-18,220.264e-18,
100e-3,0,0,40,14e-9,0,302.498e-18,309.595e-3,9.2701e-6,-32.574e-15,-1.0224e-18,872.208e-18,226.104e-18,226.104e-18,
120e-3,0,0,40,14e-9,0,308.273e-18,309.595e-3,16.9423e-6,-61.5348e-15,-1.8696e-18,885.453e-18,232.727e-18,232.727e-18,
