vgs,vds,vsb,fins,length,id,gm,gds,cdd,cgg
0.0,0.0,0.0,2.0,1.0,-0.0,0.0,8.328e-10,1.4764804070635134e-17,4.190549651609604e-17
0.02,0.0,0.0,2.0,1.0,-0.0,0.0,1.629e-09,1.5075156209664328e-17,4.2542116288463623e-17
0.04,0.0,0.0,2.0,1.0,-0.0,0.0,3.186e-09,1.5393466095848118e-17,4.316282056652202e-17
0.06,0.0,0.0,2.0,1.0,-0.0,0.0,6.232e-09,1.5713367531462828e-17,4.381535583319879e-17
0.08,0.0,0.0,2.0,1.0,-0.0,0.0,1.219e-08,1.604281826366305e-17,4.445197560556637e-17
0.1,0.0,0.0,2.0,1.0,-0.0,0.0,2.384e-08,1.636112814984684e-17,4.5104510872243137e-17
0.12,0.0,0.0,2.0,1.0,-0.0,0.0,4.66e-08,1.6663522541721442e-17,4.574113064461072e-17
0.14,0.0,0.0,2.0,1.0,-0.0,0.0,9.106e-08,1.6981832427905235e-17,4.6377750416978303e-17
0.16,0.0,0.0,2.0,1.0,-0.0,0.0,1.777e-07,1.7300142314089025e-17,4.704620117796426e-17
0.18,0.0,0.0,2.0,1.0,-0.0,0.0,3.461e-07,1.7618452200272815e-17,4.7794229410496176e-17
0.2,0.0,0.0,2.0,1.0,-0.0,0.0,6.713e-07,1.8000424063693365e-17,4.8701412586119975e-17
0.22,0.0,0.0,2.0,1.0,-0.0,0.0,1.292e-06,1.849380438727824e-17,4.995873663654595e-17
0.24,0.0,0.0,2.0,1.0,-0.0,0.0,2.452e-06,1.9178170642573387e-17,5.183676496503031e-17
0.26,0.0,0.0,2.0,1.0,-0.0,0.0,4.543e-06,2.018084678405233e-17,5.466972295206606e-17
0.28,0.0,0.0,2.0,1.0,-0.0,0.0,8.109e-06,2.1565494788951823e-17,5.872817400090938e-17
0.3,0.0,0.0,2.0,1.0,-0.0,0.0,1.375e-05,2.333211465727186e-17,6.396437162863273e-17
0.32,0.0,0.0,2.0,1.0,-0.0,0.0,2.194e-05,2.5321551445920547e-17,6.993268199457882e-17
0.34,0.0,0.0,2.0,1.0,-0.0,0.0,3.289e-05,2.7342819223187622e-17,7.606014730361678e-17
0.36,0.0,0.0,2.0,1.0,-0.0,0.0,4.654e-05,2.928450952890874e-17,8.194888019801692e-17
0.38,0.0,0.0,2.0,1.0,-0.0,0.0,6.262e-05,3.108296038584716e-17,8.747155672330568e-17
0.4,0.0,0.0,2.0,1.0,-0.0,0.0,8.079e-05,3.2738171794002874e-17,9.259634589086471e-17
0.42,0.0,0.0,2.0,1.0,-0.0,0.0,0.0001007,3.426605924768507e-17,9.735507868931239e-17
0.44,0.0,0.0,2.0,1.0,-0.0,0.0,0.0001219,3.568253824120294e-17,1.0182733259019465e-16
0.46,0.0,0.0,2.0,1.0,-0.0,0.0,0.0001442,3.701943976317486e-17,1.0602902308782069e-16
0.48,0.0,0.0,2.0,1.0,-0.0,0.0,0.0001671,3.827676381360083e-17,1.1000789666511807e-16
0.5,0.0,0.0,2.0,1.0,-0.0,0.0,0.0001905,3.9470425886790043e-17,1.1377986881639598e-16
0.52,0.0,0.0,2.0,1.0,-0.0,0.0,0.0002141,4.0600425982742504e-17,1.1734493954165443e-16
0.54,0.0,0.0,2.0,1.0,-0.0,0.0,0.0002376,4.1666764101458196e-17,1.207190243352026e-16
0.56,0.0,0.0,2.0,1.0,-0.0,0.0,0.000261,4.266944024293714e-17,1.2390212319704052e-16
0.58,0.0,0.0,2.0,1.0,-0.0,0.0,0.0002842,4.3624369901488513e-17,1.2692606711578655e-16
0.6,0.0,0.0,2.0,1.0,-0.0,0.0,0.0003069,4.453155307711232e-17,1.2977494059713148e-16
0.62,0.0,0.0,2.0,1.0,-0.0,0.0,0.0003292,4.537507427549937e-17,1.324646591353845e-16
0.64,0.0,0.0,2.0,1.0,-0.0,0.0,0.0003509,4.618676448526803e-17,1.3497930723623645e-16
0.66,0.0,0.0,2.0,1.0,-0.0,0.0,0.0003721,4.6950708212109127e-17,1.373507158883057e-16
0.68,0.0,0.0,2.0,1.0,-0.0,0.0,0.0003927,4.7666905456022656e-17,1.3957888509159222e-16
0.7,0.0,0.0,2.0,1.0,-0.0,0.0,0.0004128,4.833535621700862e-17,1.4167973034040523e-16
0.72,0.0,0.0,2.0,1.0,-0.0,0.0,0.0004322,4.8971975989376195e-17,1.4363733614043554e-16
0.74,0.0,0.0,2.0,1.0,-0.0,0.0,0.0004511,4.95767647731254e-17,1.4546761798599236e-16
0.76,0.0,0.0,2.0,1.0,-0.0,0.0,0.0004693,5.0133807073947034e-17,1.4717057587707562e-16
0.78,0.0,0.0,2.0,1.0,-0.0,0.0,0.000487,5.065901838615029e-17,1.4877804080230377e-16
0.8,0.0,0.0,2.0,1.0,-0.0,0.0,0.0005041,5.1168314204044354e-17,1.5027409726736758e-16
0.0,0.02,0.0,2.0,1.0,1.213e-11,4.5211168322309053e-10,4.247e-10,1.4440127986727664e-17,4.1603102124221445e-17
0.02,0.02,0.0,2.0,1.0,2.372e-11,7.829949462588625e-10,8.307e-10,1.4740930829171345e-17,4.2223806402279833e-17
0.04,0.02,0.0,2.0,1.0,4.639e-11,1.5579353575571747e-09,1.625e-09,1.5052874517631462e-17,4.284451068033823e-17
0.06,0.02,0.0,2.0,1.0,9.075e-11,3.0410185320746564e-09,3.178e-09,1.5369592854384336e-17,4.3497045947014994e-17
0.08,0.02,0.0,2.0,1.0,1.775e-10,5.9469418142932185e-09,6.217e-09,1.5691085839429962e-17,4.413366571938258e-17
0.1,0.02,0.0,2.0,1.0,3.471e-10,1.1628512201936892e-08,1.216e-08,1.6010987275044672e-17,4.4786200986059346e-17
0.12,0.02,0.0,2.0,1.0,6.788e-10,2.2743374098034883e-08,2.378e-08,1.6329297161228462e-17,4.542282075842693e-17
0.14,0.02,0.0,2.0,1.0,1.327e-09,4.440117575644051e-08,4.649e-08,1.6647607047412253e-17,4.6059440530794513e-17
0.16,0.02,0.0,2.0,1.0,2.591e-09,8.651717334188335e-08,9.083e-08,1.6950001439286853e-17,4.671197579747128e-17
0.18,0.02,0.0,2.0,1.0,5.051e-09,1.6819783421500016e-07,1.773e-07,1.7268311325470647e-17,4.741225754707562e-17
0.2,0.02,0.0,2.0,1.0,9.816e-09,3.245690648205885e-07,3.452e-07,1.7602536705963626e-17,4.823986325115348e-17
0.22,0.02,0.0,2.0,1.0,1.896e-08,6.201096136832976e-07,6.696e-07,1.7984508569384176e-17,4.9338032358487556e-17
0.24,0.02,0.0,2.0,1.0,3.624e-08,1.158994924932739e-06,1.289e-06,1.846197339865986e-17,5.089775080078813e-17
0.26,0.02,0.0,2.0,1.0,6.794e-08,2.091540906395131e-06,2.446e-06,1.9146339653955012e-17,5.326915945285737e-17
0.28,0.02,0.0,2.0,1.0,1.235e-07,3.5646839336124353e-06,4.531e-06,2.0117184806815575e-17,5.67228217179515e-17
0.3,0.02,0.0,2.0,1.0,2.145e-07,5.634634781087514e-06,8.085e-06,2.147000182309668e-17,6.140197704485323e-17
0.32,0.02,0.0,2.0,1.0,3.521e-07,8.187504797019662e-06,1.371e-05,2.3172959714179962e-17,6.700423104168794e-17
0.34,0.02,0.0,2.0,1.0,5.433e-07,1.0935670679807221e-05,2.187e-05,2.5114650019901085e-17,7.303620338487077e-17
0.36,0.02,0.0,2.0,1.0,7.892e-07,1.363474434754735e-05,3.278e-05,2.7088171314240585e-17,7.903634473943523e-17
0.38,0.02,0.0,2.0,1.0,1.087e-06,1.607997116886225e-05,4.637e-05,2.8998030631343335e-17,8.471817620781589e-17
0.4,0.02,0.0,2.0,1.0,1.43e-06,1.816481386333375e-05,6.24e-05,3.079648148828175e-17,9.0018035812776e-17
0.42,0.02,0.0,2.0,1.0,1.811e-06,1.9860164159976394e-05,8.052e-05,3.245169289643746e-17,9.496775454293396e-17
0.44,0.02,0.0,2.0,1.0,2.222e-06,2.1193968375078227e-05,0.0001004,3.399549584442885e-17,9.958324789259893e-17
0.46,0.02,0.0,2.0,1.0,2.657e-06,2.2263481378267776e-05,0.0001215,3.544380582656509e-17,1.0391226234469848e-16
0.48,0.02,0.0,2.0,1.0,3.11e-06,2.2951544990167674e-05,0.0001437,3.67966228428462e-17,1.0800254438216018e-16
0.5,0.02,0.0,2.0,1.0,3.573e-06,2.3329857699619542e-05,0.0001666,3.806986238758137e-17,1.118859249936024e-16
0.52,0.02,0.0,2.0,1.0,4.042e-06,2.3528703570391935e-05,0.0001899,3.926352446077058e-17,1.1554648868471603e-16
0.54,0.02,0.0,2.0,1.0,4.513e-06,2.3555047457969965e-05,0.0002134,4.039352455672304e-17,1.1901606644411934e-16
0.56,0.02,0.0,2.0,1.0,4.983e-06,2.3400826036886146e-05,0.0002369,4.145986267543874e-17,1.2231057376612156e-16
0.58,0.02,0.0,2.0,1.0,5.448e-06,2.3091407913764618e-05,0.0002602,4.247845431122687e-17,1.2541409515641354e-16
0.6,0.02,0.0,2.0,1.0,5.906e-06,2.2683381987575552e-05,0.0002833,4.3433383969778237e-17,1.283425461093044e-16
0.62,0.02,0.0,2.0,1.0,6.355e-06,2.222498397569481e-05,0.0003059,4.434056714540205e-17,1.3111184211910338e-16
0.64,0.02,0.0,2.0,1.0,6.795e-06,2.1766642029526556e-05,0.0003281,4.5184088343789086e-17,1.3372198318581047e-16
0.66,0.02,0.0,2.0,1.0,7.225e-06,2.1208327665839178e-05,0.0003498,4.599577855355775e-17,1.3617296930942568e-16
0.68,0.02,0.0,2.0,1.0,7.643e-06,2.0599967146878785e-05,0.000371,4.6759722280398856e-17,1.3846480048994894e-16
0.7,0.02,0.0,2.0,1.0,8.049e-06,1.999180374665121e-05,0.0003915,4.7460004030003193e-17,1.4062930771599875e-16
0.72,0.02,0.0,2.0,1.0,8.443e-06,1.9432857946645727e-05,0.0004115,4.8144370285298344e-17,1.426505754932658e-16
0.74,0.02,0.0,2.0,1.0,8.826e-06,1.882672438665466e-05,0.0004309,4.876507456335674e-17,1.4454451931605935e-16
0.76,0.02,0.0,2.0,1.0,9.196e-06,1.821024450673833e-05,0.0004497,4.9369863347105934e-17,1.4632705467868859e-16
0.78,0.02,0.0,2.0,1.0,9.555e-06,1.76823777466306e-05,0.0004679,4.9926905647927565e-17,1.479822660868443e-16
0.8,0.02,0.0,2.0,1.0,9.903e-06,1.7122107615529792e-05,0.0004855,5.0452116960130824e-17,1.4954198452914487e-16
0.0,0.04,0.0,2.0,1.0,1.83e-11,6.837404997804756e-10,2.163e-10,1.412659274883663e-17,4.1316623226656033e-17
0.02,0.04,0.0,2.0,1.0,3.579e-11,1.1809201943809802e-09,4.231e-10,1.44178462946948e-17,4.1921412010405235e-17
0.04,0.04,0.0,2.0,1.0,7.001e-11,2.353552496365413e-09,8.275e-10,1.4718649137138483e-17,4.2542116288463623e-17
0.06,0.04,0.0,2.0,1.0,1.37e-10,4.588260800226538e-09,1.619e-09,1.5029001276167677e-17,4.3178736060831204e-17
0.08,0.04,0.0,2.0,1.0,2.679e-10,8.980604900222819e-09,3.166e-09,1.534731116235147e-17,4.381535583319879e-17
0.1,0.04,0.0,2.0,1.0,5.239e-10,1.7531541635733985e-08,6.193e-09,1.5668804147397097e-17,4.445197560556637e-17
0.12,0.04,0.0,2.0,1.0,1.024e-09,3.432240890335418e-08,1.211e-08,1.5995071780735483e-17,4.5104510872243137e-17
0.14,0.04,0.0,2.0,1.0,2.003e-09,6.70713137052672e-08,2.369e-08,1.6313381666919273e-17,4.574113064461072e-17
0.16,0.04,0.0,2.0,1.0,3.912e-09,1.306456468434021e-07,4.631e-08,1.6615776058793874e-17,4.639366591128749e-17
0.18,0.04,0.0,2.0,1.0,7.63e-09,2.544991849901786e-07,9.048e-08,1.6934085944977664e-17,4.709394766089183e-17
0.2,0.04,0.0,2.0,1.0,1.485e-08,4.922524426599838e-07,1.766e-07,1.7252395831161454e-17,4.7873806882042125e-17
0.22,0.04,0.0,2.0,1.0,2.874e-08,9.433512844898926e-07,3.438e-07,1.7570705717345248e-17,4.887648302352106e-17
0.24,0.04,0.0,2.0,1.0,5.512e-08,1.775476887682583e-06,6.667e-07,1.7952677580765795e-17,5.027704652272974e-17
0.26,0.04,0.0,2.0,1.0,1.04e-07,3.244772426271472e-06,1.283e-06,1.8430142410041483e-17,5.2346060782924385e-17
0.28,0.04,0.0,2.0,1.0,1.911e-07,5.643900339629374e-06,2.432e-06,1.909859317102744e-17,5.537000470167039e-17
0.3,0.04,0.0,2.0,1.0,3.373e-07,9.176372906847664e-06,4.501e-06,2.0053522829578815e-17,5.949211772775049e-17
0.32,0.04,0.0,2.0,1.0,5.653e-07,1.3782231277846466e-05,8.019e-06,2.1342677868623165e-17,6.456916041238194e-17
0.34,0.04,0.0,2.0,1.0,8.929e-07,1.903573204085462e-05,1.357e-05,2.29660582881605e-17,7.02509918807626e-17
0.36,0.04,0.0,2.0,1.0,1.328e-06,2.4480133143612298e-05,2.162e-05,2.4828171122335673e-17,7.610789378654435e-17
0.38,0.04,0.0,2.0,1.0,1.87e-06,2.9608274463314867e-05,3.238e-05,2.673803043943842e-17,8.183747173785259e-17
0.4,0.04,0.0,2.0,1.0,2.508e-06,3.40858110882566e-05,4.579e-05,2.861605876792278e-17,8.728057079159541e-17
0.42,0.04,0.0,2.0,1.0,3.229e-06,3.789739902041552e-05,6.161e-05,3.038267863624282e-17,9.238944446484525e-17
0.44,0.04,0.0,2.0,1.0,4.019e-06,4.0973430506596025e-05,7.949e-05,3.2037890044398537e-17,9.716409275760212e-17
0.46,0.04,0.0,2.0,1.0,4.863e-06,4.3307716629712315e-05,9.909e-05,3.359760848669911e-17,1.0163634665848436e-16
0.48,0.04,0.0,2.0,1.0,5.747e-06,4.499466089143084e-05,0.00012,3.5045918468835354e-17,1.0586986814472879e-16
0.5,0.04,0.0,2.0,1.0,6.659e-06,4.6112717961800074e-05,0.0001419,3.6398735485116463e-17,1.0986465721633537e-16
0.52,0.04,0.0,2.0,1.0,7.588e-06,4.670366565896402e-05,0.0001646,3.767197502985163e-17,1.1363662936761328e-16
0.54,0.04,0.0,2.0,1.0,8.525e-06,4.6971978120422e-05,0.0001876,3.8881552597350034e-17,1.1721761558718092e-16
0.56,0.04,0.0,2.0,1.0,9.463e-06,4.665766033706179e-05,0.0002108,4.0011552693302495e-17,1.206076158750383e-16
0.58,0.04,0.0,2.0,1.0,1.039e-05,4.61470598903697e-05,0.000234,4.109380630632738e-17,1.238066302311854e-16
0.6,0.04,0.0,2.0,1.0,1.131e-05,4.580414018157961e-05,0.0002571,4.211239794211551e-17,1.268305741499314e-16
0.62,0.04,0.0,2.0,1.0,1.222e-05,4.513585834174693e-05,0.0002799,4.306732760066688e-17,1.2969536312558552e-16
0.64,0.04,0.0,2.0,1.0,1.311e-05,4.365162484902671e-05,0.0003023,4.397451077629068e-17,1.3238508166383854e-16
0.66,0.04,0.0,2.0,1.0,1.397e-05,4.2758043063348676e-05,0.0003243,4.481803197467773e-17,1.3491564525899968e-16
0.68,0.04,0.0,2.0,1.0,1.482e-05,4.18162028975765e-05,0.0003458,4.5629722184446396e-17,1.3728705391106893e-16
0.7,0.04,0.0,2.0,1.0,1.564e-05,4.047674454515281e-05,0.0003667,4.639366591128749e-17,1.3953113860866466e-16
0.72,0.04,0.0,2.0,1.0,1.644e-05,3.927681892181827e-05,0.0003871,4.710986315520102e-17,1.4161606836316849e-16
0.74,0.04,0.0,2.0,1.0,1.721e-05,3.791597976757017e-05,0.0004068,4.777831391618699e-17,1.435736741631988e-16
0.76,0.04,0.0,2.0,1.0,1.796e-05,3.7059662809092156e-05,0.000426,4.841493368855457e-17,1.4541987150306478e-16
0.78,0.04,0.0,2.0,1.0,1.869e-05,3.584496819485147e-05,0.0004446,4.9019722472303766e-17,1.4713874488845725e-16
0.8,0.04,0.0,2.0,1.0,1.939e-05,3.4101062055511755e-05,0.0004627,4.95767647731254e-17,1.487302943193762e-16
0.0,0.06,0.0,2.0,1.0,2.147e-11,8.010195367604921e-10,1.133e-10,1.3827381455823868e-17,4.1046059823399814e-17
0.02,0.06,0.0,2.0,1.0,4.2e-11,1.3867907491784634e-09,2.215e-10,1.4104311056803765e-17,4.1634933112839824e-17
0.04,0.06,0.0,2.0,1.0,8.215e-11,2.7591712062996823e-09,4.331e-10,1.4395564602661933e-17,4.223972189658903e-17
0.06,0.06,0.0,2.0,1.0,1.607e-10,5.3837460666833195e-09,8.471e-10,1.4696367445105617e-17,4.2860426174647413e-17
0.08,0.06,0.0,2.0,1.0,3.143e-10,1.0532689211992543e-08,1.657e-09,1.500831113356573e-17,4.3497045947014994e-17
0.1,0.06,0.0,2.0,1.0,6.147e-10,2.059398805880277e-08,3.241e-09,1.5325029470318605e-17,4.413366571938258e-17
0.12,0.06,0.0,2.0,1.0,1.202e-09,4.026294771453128e-08,6.34e-09,1.564652245536423e-17,4.477028549175016e-17
0.14,0.06,0.0,2.0,1.0,2.35e-09,7.868152966793408e-08,1.24e-08,1.5963240792117105e-17,4.542282075842693e-17
0.16,0.06,0.0,2.0,1.0,4.591e-09,1.534236309456986e-07,2.425e-08,1.6281550678300895e-17,4.60753560251037e-17
0.18,0.06,0.0,2.0,1.0,8.957e-09,2.9879514883263495e-07,4.739e-08,1.6599860564484685e-17,4.6759722280398856e-17
0.2,0.06,0.0,2.0,1.0,1.744e-08,5.789759137737259e-07,9.257e-08,1.6918170450668475e-17,4.753958150154914e-17
0.22,0.06,0.0,2.0,1.0,3.379e-08,1.1106789711949295e-06,1.806e-07,1.7220564842543076e-17,4.8510426654409705e-17
0.24,0.06,0.0,2.0,1.0,6.493e-08,2.1025722487771533e-06,3.513e-07,1.7554790223036055e-17,4.983141268207243e-17
0.26,0.06,0.0,2.0,1.0,1.23e-07,3.8617881446622445e-06,6.799e-07,1.7936762086456605e-17,5.174127199917518e-17
0.28,0.06,0.0,2.0,1.0,2.272e-07,6.792637695757661e-06,1.304e-06,1.841422691573229e-17,5.4494652514664967e-17
0.3,0.06,0.0,2.0,1.0,4.048e-07,1.1240028605005035e-05,2.462e-06,1.9066762182409063e-17,5.818704719439694e-17
0.32,0.06,0.0,2.0,1.0,6.876e-07,1.730970078757607e-05,4.53e-06,1.9973945358032866e-17,6.275479406113433e-17
0.34,0.06,0.0,2.0,1.0,1.105e-06,2.4553027962266278e-05,8.019e-06,2.1199438419840462e-17,6.794324520593013e-17
0.36,0.06,0.0,2.0,1.0,1.674e-06,3.243916531829087e-05,1.349e-05,2.2743241367831845e-17,7.34500062369097e-17
0.38,0.06,0.0,2.0,1.0,2.402e-06,4.024020655625787e-05,2.138e-05,2.4509861236151883e-17,7.903634473943523e-17
0.4,0.06,0.0,2.0,1.0,3.279e-06,4.7349006453672906e-05,3.191e-05,2.634014308170868e-17,8.447944379317806e-17
0.42,0.06,0.0,2.0,1.0,4.29e-06,5.356232474472399e-05,4.501e-05,2.8154509432956286e-17,8.968381043228303e-17
0.44,0.06,0.0,2.0,1.0,5.414e-06,5.864997112226423e-05,6.046e-05,2.988929831265794e-17,9.46016981738226e-17
0.46,0.06,0.0,2.0,1.0,6.629e-06,6.268610740117102e-05,7.793e-05,3.151267873219528e-17,9.923310701779676e-17
0.48,0.06,0.0,2.0,1.0,7.915e-06,6.575399606824547e-05,9.707e-05,3.3056481680186664e-17,1.0359395245851468e-16
0.5,0.06,0.0,2.0,1.0,9.252e-06,6.774630512103962e-05,0.0001175,3.448887616801372e-17,1.0771606548459476e-16
0.52,0.06,0.0,2.0,1.0,1.062e-05,6.900962112410875e-05,0.0001389,3.584169318429483e-17,1.1161536159034622e-16
0.54,0.06,0.0,2.0,1.0,1.201e-05,6.991436870000416e-05,0.000161,3.711493272902999e-17,1.153077562700782e-16
0.56,0.06,0.0,2.0,1.0,1.341e-05,6.983162151202934e-05,0.0001836,3.830859480221921e-17,1.1880916501809988e-16
0.58,0.06,0.0,2.0,1.0,1.48e-05,6.925834364947821e-05,0.0002063,3.945451039248086e-17,1.2210367234010212e-16
0.6,0.06,0.0,2.0,1.0,1.618e-05,6.863460308886506e-05,0.000229,4.0520848511196555e-17,1.2523902471901245e-16
0.62,0.06,0.0,2.0,1.0,1.754e-05,6.720244239266114e-05,0.0002516,4.153944014698469e-17,1.2818339116621252e-16
0.64,0.06,0.0,2.0,1.0,1.887e-05,6.60556273404842e-05,0.0002739,4.249436980553606e-17,1.309526871760115e-16
0.66,0.06,0.0,2.0,1.0,2.018e-05,6.457464744419699e-05,0.0002959,4.340155298115986e-17,1.3357874373702777e-16
0.68,0.06,0.0,2.0,1.0,2.145e-05,6.264538208153839e-05,0.0003174,4.42609896738561e-17,1.3602972986064295e-16
0.7,0.06,0.0,2.0,1.0,2.269e-05,6.134422503087134e-05,0.0003385,4.5072679883624764e-17,1.3833747653547543e-16
0.72,0.06,0.0,2.0,1.0,2.39e-05,5.947731699377316e-05,0.0003591,4.583662361046586e-17,1.405019837615252e-16
0.74,0.06,0.0,2.0,1.0,2.507e-05,5.774650699402908e-05,0.000379,4.655282085437939e-17,1.4253916703310145e-16
0.76,0.06,0.0,2.0,1.0,2.621e-05,5.603665503010642e-05,0.0003985,4.723718710967454e-17,1.4443311085589502e-16
0.78,0.06,0.0,2.0,1.0,2.731e-05,5.410687288554565e-05,0.0004173,4.7873806882042125e-17,1.4621564621852426e-16
0.8,0.06,0.0,2.0,1.0,2.838e-05,5.304975369710634e-05,0.0004356,4.847859566579132e-17,1.4788677312098917e-16
0.0,0.08,0.0,2.0,1.0,2.319e-11,8.634762347814108e-10,6.502e-11,1.3542494107689374e-17,4.077549642014359e-17
0.02,0.08,0.0,2.0,1.0,4.536e-11,1.4984174619563607e-09,1.27e-10,1.380669131322192e-17,4.1348454215274406e-17
0.04,0.08,0.0,2.0,1.0,8.872e-11,2.978225896918116e-09,2.484e-10,1.408362091420182e-17,4.1953242999023614e-17
0.06,0.08,0.0,2.0,1.0,1.735e-10,5.8120809519723935e-09,4.857e-10,1.4374874460059988e-17,4.255803178277282e-17
0.08,0.08,0.0,2.0,1.0,3.394e-10,1.1380146883672638e-08,9.501e-10,1.467567730250367e-17,4.3178736060831204e-17
0.1,0.08,0.0,2.0,1.0,6.639e-10,2.223648901919104e-08,1.858e-09,1.4987620990963786e-17,4.381535583319879e-17
0.12,0.08,0.0,2.0,1.0,1.298e-09,4.348182487731082e-08,3.635e-09,1.5304339327716656e-17,4.445197560556637e-17
0.14,0.08,0.0,2.0,1.0,2.538e-09,8.498613728827272e-08,7.109e-09,1.5625832312762286e-17,4.5104510872243137e-17
0.16,0.08,0.0,2.0,1.0,4.959e-09,1.6579136538068213e-07,1.39e-08,1.5947325297807912e-17,4.575704613891991e-17
0.18,0.08,0.0,2.0,1.0,9.676e-09,3.2267930286144514e-07,2.717e-08,1.6265635183991706e-17,4.6441412394215066e-17
0.2,0.08,0.0,2.0,1.0,1.884e-08,6.258911223221391e-07,5.306e-08,1.6583945070175496e-17,4.722127161536535e-17
0.22,0.08,0.0,2.0,1.0,3.653e-08,1.2023208566830238e-06,1.035e-07,1.6886339462050097e-17,4.817620127391672e-17
0.24,0.08,0.0,2.0,1.0,7.026e-08,2.2786584761632004e-06,2.012e-07,1.7204649348233887e-17,4.9465356312961075e-17
0.26,0.08,0.0,2.0,1.0,1.333e-07,4.1999328124241605e-06,3.893e-07,1.753887472872687e-17,5.129563815851787e-17
0.28,0.08,0.0,2.0,1.0,2.47e-07,7.434710071635358e-06,7.471e-07,1.7920846592147416e-17,5.3889863730915765e-17
0.3,0.08,0.0,2.0,1.0,4.424e-07,1.2428978000482222e-05,1.415e-06,1.841422691573229e-17,5.73276105017007e-17
0.32,0.08,0.0,2.0,1.0,7.571e-07,1.9367403975507718e-05,2.63e-06,1.9050846688099874e-17,6.152930099932674e-17
0.34,0.08,0.0,2.0,1.0,1.229e-06,2.8094123529633495e-05,4.753e-06,1.9926198875105298e-17,6.624028731484684e-17
0.36,0.08,0.0,2.0,1.0,1.888e-06,3.789281733510079e-05,8.269e-06,2.1103945453985324e-17,7.128549901085993e-17
0.38,0.08,0.0,2.0,1.0,2.747e-06,4.803516424363289e-05,1.37e-05,2.256817093043076e-17,7.652169663858328e-17
0.4,0.08,0.0,2.0,1.0,3.807e-06,5.7815924488565286e-05,2.145e-05,2.422338233858647e-17,8.180564074923422e-17
0.42,0.08,0.0,2.0,1.0,5.052e-06,6.644949451717897e-05,3.172e-05,2.595817121828813e-17,8.699409189402999e-17
0.44,0.08,0.0,2.0,1.0,6.457e-06,7.388413351683273e-05,4.445e-05,2.76770446036806e-17,9.19915571071155e-17
0.46,0.08,0.0,2.0,1.0,7.998e-06,7.991176700888001e-05,5.942e-05,2.9348171506145504e-17,9.6734374411254e-17
0.48,0.08,0.0,2.0,1.0,9.644e-06,8.451655396091942e-05,7.632e-05,3.092380544275527e-17,1.0123845930075463e-16
0.5,0.08,0.0,2.0,1.0,1.137e-05,8.781997306131363e-05,9.481e-05,3.240394641350989e-17,1.0548789628130822e-16
0.52,0.08,0.0,2.0,1.0,1.315e-05,9.01019505890242e-05,0.0001146,3.382042540702776e-17,1.095145163415332e-16
0.54,0.08,0.0,2.0,1.0,1.497e-05,9.177086185850797e-05,0.0001353,3.5141411434690495e-17,1.1331831948142948e-16
