vgs,vsb,vds,total_fins,length,gm,cdd,vth,gds,id,cds,cgg,cgd,cgs
0,0,0,2,14e-9,0,14.6661e-18,359.365e-3,918.34e-12,2.1747e-54,-203.088e-24,41.9125e-18,10.1562e-18,10.1562e-18
20e-3,0,0,2,14e-9,0,14.977e-18,359.365e-3,1.7883e-9,-813.464e-18,-397.424e-24,42.5347e-18,10.4673e-18,10.4673e-18
40e-3,0,0,2,14e-9,0,15.2945e-18,359.365e-3,3.4825e-9,-1.3071e-15,-777.785e-24,43.1705e-18,10.7853e-18,10.7853e-18
60e-3,0,0,2,14e-9,0,15.6156e-18,359.365e-3,6.7815e-9,-1.5131e-15,-1.5222e-21,43.8141e-18,11.1071e-18,11.1071e-18
80e-3,0,0,2,14e-9,0,15.937e-18,359.365e-3,13.2043e-9,-1.4631e-15,-2.9791e-21,44.4598e-18,11.4299e-18,11.4299e-18
100e-3,0,0,2,14e-9,0,16.2558e-18,359.365e-3,25.7061e-9,-1.1919e-15,-5.8291e-21,45.1033e-18,11.7516e-18,11.7516e-18
120e-3,0,0,2,14e-9,0,16.5707e-18,359.365e-3,50.0291e-9,-755.988e-18,-11.4e-21,45.7441e-18,12.072e-18,12.072e-18
140e-3,0,0,2,14e-9,0,16.8827e-18,359.365e-3,97.308e-9,-498.988e-18,-22.2703e-21,46.3899e-18,12.3949e-18,12.3949e-18
160e-3,0,0,2,14e-9,0,17.1984e-18,359.365e-3,189.047e-9,-1.3327e-15,-43.409e-21,47.0636e-18,12.7318e-18,12.7318e-18
180e-3,0,0,2,14e-9,0,17.5338e-18,359.365e-3,366.453e-9,-2.7901e-15,-84.2422e-21,47.8161e-18,13.1081e-18,13.1081e-18
200e-3,0,0,2,14e-9,0,17.9214e-18,359.365e-3,707.317e-9,-4.8802e-15,-162.119e-21,48.7471e-18,13.5735e-18,13.5735e-18
220e-3,0,0,2,14e-9,0,18.4193e-18,359.365e-3,1.3544e-6,-7.9020e-15,-307.159e-21,50.0329e-18,14.2164e-18,14.2164e-18
240e-3,0,0,2,14e-9,0,19.1179e-18,359.365e-3,2.5565e-6,-12.4264e-15,-566.095e-21,51.948e-18,15.174e-18,15.174e-18
260e-3,0,0,2,14e-9,0,20.1289e-18,359.365e-3,4.7093e-6,-19.4411e-15,-997.078e-21,54.8319e-18,16.616e-18,16.616e-18
280e-3,0,0,2,14e-9,0,21.5327e-18,359.365e-3,8.3545e-6,-30.4747e-15,-1.6439e-18,58.9332e-18,18.6666e-18,18.6666e-18
300e-3,0,0,2,14e-9,0,23.3016e-18,359.365e-3,14.0823e-6,-47.5501e-15,-2.4971e-18,64.1775e-18,21.2888e-18,21.2888e-18
320e-3,0,0,2,14e-9,0,25.2857e-18,359.365e-3,22.3521e-6,-72.9127e-15,-3.4843e-18,70.1201e-18,24.26e-18,24.26e-18
340e-3,0,0,2,14e-9,0,27.3011e-18,359.365e-3,33.3577e-6,-108.73e-15,-4.5137e-18,76.2095e-18,27.3048e-18,27.3048e-18
360e-3,0,0,2,14e-9,0,29.2241e-18,359.365e-3,47.026e-6,-157.006e-15,-5.5207e-18,82.0696e-18,30.2348e-18,30.2348e-18
380e-3,0,0,2,14e-9,0,31.0081e-18,359.365e-3,63.1048e-6,-219.703e-15,-6.4777e-18,87.5516e-18,32.9758e-18,32.9758e-18
400e-3,0,0,2,14e-9,0,32.6528e-18,359.365e-3,81.2534e-6,-298.904e-15,-7.3802e-18,92.6461e-18,35.523e-18,35.523e-18
420e-3,0,0,2,14e-9,0,34.1753e-18,359.365e-3,101.102e-6,-396.946e-15,-8.2321e-18,97.395e-18,37.8975e-18,37.8975e-18
440e-3,0,0,2,14e-9,0,35.5944e-18,359.365e-3,122.287e-6,-516.494e-15,-9.0390e-18,101.847e-18,40.1235e-18,40.1235e-18
460e-3,0,0,2,14e-9,0,36.9256e-18,359.365e-3,144.466e-6,-660.601e-15,-9.8051e-18,106.041e-18,42.2207e-18,42.2206e-18
480e-3,0,0,2,14e-9,0,38.18e-18,359.365e-3,167.334e-6,-832.757e-15,-10.5332e-18,110.006e-18,44.2032e-18,44.2032e-18
500e-3,0,0,2,14e-9,0,39.3658e-18,359.365e-3,190.62e-6,-1.0369e-12,-11.2248e-18,113.761e-18,46.0806e-18,46.0806e-18
520e-3,0,0,2,14e-9,0,40.4883e-18,359.365e-3,214.095e-6,-1.2776e-12,-11.881e-18,117.319e-18,47.8593e-18,47.8593e-18
540e-3,0,0,2,14e-9,0,41.5516e-18,359.365e-3,237.567e-6,-1.5599e-12,-12.5023e-18,120.688e-18,49.5439e-18,49.5439e-18
560e-3,0,0,2,14e-9,0,42.5587e-18,359.365e-3,260.878e-6,-1.8897e-12,-13.0893e-18,123.876e-18,51.1379e-18,51.1379e-18
580e-3,0,0,2,14e-9,0,43.512e-18,359.365e-3,283.905e-6,-2.2734e-12,-13.6423e-18,126.889e-18,52.6443e-18,52.6443e-18
600e-3,0,0,2,14e-9,0,44.4139e-18,359.365e-3,306.549e-6,-2.7183e-12,-14.1621e-18,129.732e-18,54.066e-18,54.066e-18
620e-3,0,0,2,14e-9,0,45.2663e-18,359.365e-3,328.737e-6,-3.2328e-12,-14.6496e-18,132.412e-18,55.4058e-18,55.4058e-18
640e-3,0,0,2,14e-9,0,46.0712e-18,359.365e-3,350.414e-6,-3.8260e-12,-15.1056e-18,134.934e-18,56.6668e-18,56.6668e-18
660e-3,0,0,2,14e-9,0,46.8307e-18,359.365e-3,371.543e-6,-4.5085e-12,-15.5314e-18,137.304e-18,57.8521e-18,57.8521e-18
680e-3,0,0,2,14e-9,0,47.5469e-18,359.365e-3,392.099e-6,-5.2919e-12,-15.9281e-18,139.53e-18,58.965e-18,58.965e-18
700e-3,0,0,2,14e-9,0,48.2216e-18,359.365e-3,412.069e-6,-6.1893e-12,-16.2972e-18,141.618e-18,60.0088e-18,60.0088e-18
720e-3,0,0,2,14e-9,0,48.8571e-18,359.365e-3,431.446e-6,-7.2155e-12,-16.6398e-18,143.574e-18,60.9869e-18,60.9869e-18
740e-3,0,0,2,14e-9,0,49.4553e-18,359.365e-3,450.232e-6,-8.3871e-12,-16.9576e-18,145.406e-18,61.9028e-18,61.9028e-18
760e-3,0,0,2,14e-9,0,50.0182e-18,359.365e-3,468.433e-6,-9.7223e-12,-17.2518e-18,147.12e-18,62.7599e-18,62.7599e-18
780e-3,0,0,2,14e-9,0,50.5477e-18,359.365e-3,486.058e-6,-11.2421e-12,-17.5239e-18,148.723e-18,63.5616e-18,63.5616e-18
800e-3,0,0,2,14e-9,0,51.0458e-18,359.365e-3,503.119e-6,-12.9694e-12,-17.7753e-18,150.222e-18,64.3111e-18,64.3111e-18
0,0,0,6,14e-9,0,42.1888e-18,359.81e-3,2.9781e-9,770.653e-57,-600.287e-24,125.737e-18,30.4687e-18,30.4687e-18
20e-3,0,0,6,14e-9,0,43.1215e-18,359.81e-3,5.7997e-9,-2.4403e-15,-1.1747e-21,127.604e-18,31.402e-18,31.402e-18
40e-3,0,0,6,14e-9,0,44.0741e-18,359.81e-3,11.2941e-9,-3.9214e-15,-2.2989e-21,129.511e-18,32.3556e-18,32.3556e-18
60e-3,0,0,6,14e-9,0,45.0372e-18,359.81e-3,21.9926e-9,-4.5394e-15,-4.4994e-21,131.442e-18,33.321e-18,33.321e-18
80e-3,0,0,6,14e-9,0,46.0012e-18,359.81e-3,42.822e-9,-4.3892e-15,-8.8057e-21,133.379e-18,34.2893e-18,34.2893e-18
100e-3,0,0,6,14e-9,0,46.9576e-18,359.81e-3,83.3662e-9,-3.5750e-15,-17.2302e-21,135.308e-18,35.2541e-18,35.2541e-18
120e-3,0,0,6,14e-9,0,47.9016e-18,359.81e-3,162.248e-9,-2.2661e-15,-33.6975e-21,137.229e-18,36.2146e-18,36.2146e-18
140e-3,0,0,6,14e-9,0,48.8367e-18,359.81e-3,315.583e-9,-1.4928e-15,-65.8317e-21,139.164e-18,37.1819e-18,37.1819e-18
160e-3,0,0,6,14e-9,0,49.782e-18,359.81e-3,613.125e-9,-3.9891e-15,-128.327e-21,141.179e-18,38.1896e-18,38.1896e-18
180e-3,0,0,6,14e-9,0,50.7849e-18,359.81e-3,1.1885e-6,-8.3505e-15,-249.073e-21,143.426e-18,39.3132e-18,39.3132e-18
200e-3,0,0,6,14e-9,0,51.9413e-18,359.81e-3,2.2944e-6,-14.5985e-15,-479.446e-21,146.2e-18,40.7e-18,40.7e-18
220e-3,0,0,6,14e-9,0,53.4235e-18,359.81e-3,4.3945e-6,-23.6188e-15,-908.801e-21,150.023e-18,42.6116e-18,42.6116e-18
240e-3,0,0,6,14e-9,0,55.5011e-18,359.81e-3,8.2981e-6,-37.1038e-15,-1.6762e-18,155.713e-18,45.4566e-18,45.4566e-18
260e-3,0,0,6,14e-9,0,58.5086e-18,359.81e-3,15.296e-6,-57.9883e-15,-2.9560e-18,164.288e-18,49.7439e-18,49.7439e-18
280e-3,0,0,6,14e-9,0,62.6919e-18,359.81e-3,27.1616e-6,-90.826e-15,-4.8820e-18,176.506e-18,55.8532e-18,55.8532e-18
300e-3,0,0,6,14e-9,0,67.9775e-18,359.81e-3,45.838e-6,-141.666e-15,-7.4299e-18,192.174e-18,63.6868e-18,63.6868e-18
320e-3,0,0,6,14e-9,0,73.9209e-18,359.81e-3,72.8504e-6,-217.245e-15,-10.3862e-18,209.973e-18,72.5864e-18,72.5864e-18
340e-3,0,0,6,14e-9,0,79.9693e-18,359.81e-3,108.852e-6,-324.082e-15,-13.4743e-18,228.246e-18,81.7229e-18,81.7229e-18
360e-3,0,0,6,14e-9,0,85.7463e-18,359.81e-3,153.614e-6,-468.201e-15,-16.4983e-18,245.848e-18,90.5239e-18,90.5239e-18
380e-3,0,0,6,14e-9,0,91.1074e-18,359.81e-3,206.309e-6,-655.485e-15,-19.3734e-18,262.32e-18,98.76e-18,98.76e-18
400e-3,0,0,6,14e-9,0,96.0499e-18,359.81e-3,265.813e-6,-892.178e-15,-22.0845e-18,277.627e-18,106.414e-18,106.414e-18
420e-3,0,0,6,14e-9,0,100.625e-18,359.81e-3,330.906e-6,-1.1852e-12,-24.6436e-18,291.895e-18,113.547e-18,113.547e-18
440e-3,0,0,6,14e-9,0,104.888e-18,359.81e-3,400.383e-6,-1.5427e-12,-27.067e-18,305.268e-18,120.234e-18,120.234e-18
460e-3,0,0,6,14e-9,0,108.886e-18,359.81e-3,473.12e-6,-1.9737e-12,-29.3678e-18,317.867e-18,126.533e-18,126.533e-18
480e-3,0,0,6,14e-9,0,112.654e-18,359.81e-3,548.101e-6,-2.4886e-12,-31.5544e-18,329.776e-18,132.488e-18,132.488e-18
500e-3,0,0,6,14e-9,0,116.215e-18,359.81e-3,624.438e-6,-3.0993e-12,-33.6318e-18,341.053e-18,138.126e-18,138.126e-18
520e-3,0,0,6,14e-9,0,119.587e-18,359.81e-3,701.374e-6,-3.8194e-12,-35.6027e-18,351.737e-18,143.469e-18,143.469e-18
540e-3,0,0,6,14e-9,0,122.78e-18,359.81e-3,778.275e-6,-4.6642e-12,-37.4688e-18,361.857e-18,148.528e-18,148.528e-18
560e-3,0,0,6,14e-9,0,125.805e-18,359.81e-3,854.628e-6,-5.6508e-12,-39.2317e-18,371.432e-18,153.316e-18,153.316e-18
580e-3,0,0,6,14e-9,0,128.668e-18,359.81e-3,930.022e-6,-6.7988e-12,-40.893e-18,380.481e-18,157.84e-18,157.84e-18
600e-3,0,0,6,14e-9,0,131.377e-18,359.81e-3,1.0041e-3,-8.1302e-12,-42.4546e-18,389.021e-18,162.111e-18,162.111e-18
620e-3,0,0,6,14e-9,0,133.937e-18,359.81e-3,1.0767e-3,-9.6696e-12,-43.919e-18,397.07e-18,166.135e-18,166.135e-18
640e-3,0,0,6,14e-9,0,136.355e-18,359.81e-3,1.1476e-3,-11.4449e-12,-45.2891e-18,404.646e-18,169.923e-18,169.923e-18
660e-3,0,0,6,14e-9,0,138.636e-18,359.81e-3,1.2167e-3,-13.4872e-12,-46.5684e-18,411.767e-18,173.484e-18,173.484e-18
680e-3,0,0,6,14e-9,0,140.787e-18,359.81e-3,1.2839e-3,-15.8316e-12,-47.7604e-18,418.454e-18,176.827e-18,176.827e-18
700e-3,0,0,6,14e-9,0,142.814e-18,359.81e-3,1.3491e-3,-18.5174e-12,-48.8692e-18,424.725e-18,179.962e-18,179.962e-18
720e-3,0,0,6,14e-9,0,144.723e-18,359.81e-3,1.4124e-3,-21.5887e-12,-49.8988e-18,430.602e-18,182.901e-18,182.901e-18
740e-3,0,0,6,14e-9,0,146.52e-18,359.81e-3,1.4737e-3,-25.0949e-12,-50.8535e-18,436.105e-18,185.652e-18,185.652e-18
760e-3,0,0,6,14e-9,0,148.21e-18,359.81e-3,1.5331e-3,-29.0912e-12,-51.7377e-18,441.255e-18,188.227e-18,188.227e-18
780e-3,0,0,6,14e-9,0,149.801e-18,359.81e-3,1.5906e-3,-33.6396e-12,-52.5554e-18,446.072e-18,190.636e-18,190.636e-18
800e-3,0,0,6,14e-9,0,151.297e-18,359.81e-3,1.6463e-3,-38.8094e-12,-53.3108e-18,450.575e-18,192.888e-18,192.888e-18
0,0,0,10,14e-9,0,70.3146e-18,359.81e-3,4.9636e-9,1.2844e-54,-1.0004e-21,209.562e-18,50.7811e-18,50.7811e-18
20e-3,0,0,10,14e-9,0,71.8692e-18,359.81e-3,9.6661e-9,-4.0673e-15,-1.9578e-21,212.673e-18,52.3366e-18,52.3366e-18
40e-3,0,0,10,14e-9,0,73.4568e-18,359.81e-3,18.8234e-9,-6.5357e-15,-3.8316e-21,215.852e-18,53.9261e-18,53.9261e-18
60e-3,0,0,10,14e-9,0,75.062e-18,359.81e-3,36.6543e-9,-7.5657e-15,-7.4991e-21,219.07e-18,55.535e-18,55.535e-18
80e-3,0,0,10,14e-9,0,76.6687e-18,359.81e-3,71.37e-9,-7.3154e-15,-14.6763e-21,222.298e-18,57.1489e-18,57.1489e-18
100e-3,0,0,10,14e-9,0,78.2627e-18,359.81e-3,138.944e-9,-5.9583e-15,-28.717e-21,225.514e-18,58.7569e-18,58.7569e-18
120e-3,0,0,10,14e-9,0,79.8361e-18,359.81e-3,270.414e-9,-3.7769e-15,-56.1624e-21,228.715e-18,60.3577e-18,60.3577e-18
140e-3,0,0,10,14e-9,0,81.3946e-18,359.81e-3,525.972e-9,-2.4880e-15,-109.719e-21,231.94e-18,61.9698e-18,61.9698e-18
160e-3,0,0,10,14e-9,0,82.97e-18,359.81e-3,1.0218e-6,-6.6486e-15,-213.879e-21,235.299e-18,63.6494e-18,63.6494e-18
180e-3,0,0,10,14e-9,0,84.6415e-18,359.81e-3,1.9809e-6,-13.9175e-15,-415.121e-21,239.044e-18,65.5221e-18,65.5221e-18
200e-3,0,0,10,14e-9,0,86.5688e-18,359.81e-3,3.8240e-6,-24.3309e-15,-799.077e-21,243.667e-18,67.8333e-18,67.8333e-18
220e-3,0,0,10,14e-9,0,89.0391e-18,359.81e-3,7.3241e-6,-39.3646e-15,-1.5146e-18,250.039e-18,71.0193e-18,71.0193e-18
240e-3,0,0,10,14e-9,0,92.5018e-18,359.81e-3,13.8302e-6,-61.8396e-15,-2.7937e-18,259.522e-18,75.761e-18,75.761e-18
260e-3,0,0,10,14e-9,0,97.5143e-18,359.81e-3,25.4933e-6,-96.6472e-15,-4.9267e-18,273.813e-18,82.9065e-18,82.9065e-18
280e-3,0,0,10,14e-9,0,104.486e-18,359.81e-3,45.2694e-6,-151.377e-15,-8.1367e-18,294.177e-18,93.0887e-18,93.0887e-18
300e-3,0,0,10,14e-9,0,113.296e-18,359.81e-3,76.3967e-6,-236.109e-15,-12.3833e-18,320.289e-18,106.145e-18,106.145e-18
320e-3,0,0,10,14e-9,0,123.202e-18,359.81e-3,121.417e-6,-362.075e-15,-17.3103e-18,349.955e-18,120.977e-18,120.977e-18
340e-3,0,0,10,14e-9,0,133.282e-18,359.81e-3,181.421e-6,-540.137e-15,-22.4572e-18,380.41e-18,136.205e-18,136.205e-18
360e-3,0,0,10,14e-9,0,142.911e-18,359.81e-3,256.024e-6,-780.335e-15,-27.4972e-18,409.746e-18,150.873e-18,150.873e-18
380e-3,0,0,10,14e-9,0,151.846e-18,359.81e-3,343.849e-6,-1.0924e-12,-32.2889e-18,437.2e-18,164.6e-18,164.6e-18
400e-3,0,0,10,14e-9,0,160.083e-18,359.81e-3,443.022e-6,-1.4869e-12,-36.8074e-18,462.712e-18,177.356e-18,177.356e-18
420e-3,0,0,10,14e-9,0,167.708e-18,359.81e-3,551.51e-6,-1.9754e-12,-41.0726e-18,486.491e-18,189.246e-18,189.246e-18
440e-3,0,0,10,14e-9,0,174.813e-18,359.81e-3,667.305e-6,-2.5712e-12,-45.1117e-18,508.78e-18,200.39e-18,200.39e-18
460e-3,0,0,10,14e-9,0,181.477e-18,359.81e-3,788.533e-6,-3.2895e-12,-48.9464e-18,529.778e-18,210.889e-18,210.889e-18
480e-3,0,0,10,14e-9,0,187.757e-18,359.81e-3,913.501e-6,-4.1477e-12,-52.5907e-18,549.626e-18,220.813e-18,220.813e-18
500e-3,0,0,10,14e-9,0,193.692e-18,359.81e-3,1.0407e-3,-5.1656e-12,-56.053e-18,568.422e-18,230.211e-18,230.211e-18
520e-3,0,0,10,14e-9,0,199.311e-18,359.81e-3,1.1689e-3,-6.3658e-12,-59.3378e-18,586.229e-18,239.114e-18,239.114e-18
540e-3,0,0,10,14e-9,0,204.634e-18,359.81e-3,1.2971e-3,-7.7736e-12,-62.448e-18,603.094e-18,247.547e-18,247.547e-18
560e-3,0,0,10,14e-9,0,209.675e-18,359.81e-3,1.4243e-3,-9.4180e-12,-65.3862e-18,619.053e-18,255.526e-18,255.526e-18
580e-3,0,0,10,14e-9,0,214.447e-18,359.81e-3,1.5500e-3,-11.3314e-12,-68.155e-18,634.135e-18,263.067e-18,263.067e-18
600e-3,0,0,10,14e-9,0,218.961e-18,359.81e-3,1.6735e-3,-13.5503e-12,-70.7577e-18,648.369e-18,270.184e-18,270.184e-18
620e-3,0,0,10,14e-9,0,223.228e-18,359.81e-3,1.7945e-3,-16.116e-12,-73.1983e-18,661.784e-18,276.892e-18,276.892e-18
640e-3,0,0,10,14e-9,0,227.258e-18,359.81e-3,1.9127e-3,-19.0748e-12,-75.4819e-18,674.41e-18,283.205e-18,283.205e-18
660e-3,0,0,10,14e-9,0,231.06e-18,359.81e-3,2.0278e-3,-22.4786e-12,-77.614e-18,686.279e-18,289.139e-18,289.139e-18
680e-3,0,0,10,14e-9,0,234.645e-18,359.81e-3,2.1398e-3,-26.386e-12,-79.6006e-18,697.423e-18,294.711e-18,294.711e-18
700e-3,0,0,10,14e-9,0,238.023e-18,359.81e-3,2.2485e-3,-30.8623e-12,-81.4486e-18,707.875e-18,299.937e-18,299.937e-18
720e-3,0,0,10,14e-9,0,241.205e-18,359.81e-3,2.3540e-3,-35.9812e-12,-83.1647e-18,717.67e-18,304.835e-18,304.835e-18
740e-3,0,0,10,14e-9,0,244.199e-18,359.81e-3,2.4562e-3,-41.8248e-12,-84.7559e-18,726.842e-18,309.421e-18,309.421e-18
760e-3,0,0,10,14e-9,0,247.017e-18,359.81e-3,2.5553e-3,-48.4854e-12,-86.2294e-18,735.425e-18,313.712e-18,313.712e-18
780e-3,0,0,10,14e-9,0,249.669e-18,359.81e-3,2.6511e-3,-56.0661e-12,-87.5923e-18,743.453e-18,317.726e-18,317.726e-18
800e-3,0,0,10,14e-9,0,252.162e-18,359.81e-3,2.7439e-3,-64.6823e-12,-88.8513e-18,750.958e-18,321.479e-18,321.479e-18
0,0,0,20,14e-9,0,140.629e-18,358.331e-3,10.6428e-9,2.5688e-54,-2.1020e-21,419.125e-18,101.562e-18,101.562e-18
20e-3,0,0,20,14e-9,0,143.739e-18,358.331e-3,20.7256e-9,-8.1347e-15,-4.1134e-21,425.348e-18,104.674e-18,104.674e-18
40e-3,0,0,20,14e-9,0,146.914e-18,358.331e-3,40.3599e-9,-13.0719e-15,-8.0503e-21,431.707e-18,107.853e-18,107.853e-18
60e-3,0,0,20,14e-9,0,150.125e-18,358.331e-3,78.5913e-9,-15.1328e-15,-15.7556e-21,438.144e-18,111.072e-18,111.072e-18
80e-3,0,0,20,14e-9,0,153.34e-18,358.331e-3,153.025e-9,-14.6345e-15,-30.8344e-21,444.604e-18,114.302e-18,114.302e-18
100e-3,0,0,20,14e-9,0,156.531e-18,358.331e-3,297.905e-9,-11.9255e-15,-60.3315e-21,451.045e-18,117.523e-18,117.523e-18
120e-3,0,0,20,14e-9,0,159.684e-18,358.331e-3,579.768e-9,-7.5742e-15,-117.984e-21,457.465e-18,120.732e-18,120.732e-18
140e-3,0,0,20,14e-9,0,162.811e-18,358.331e-3,1.1276e-6,-5.0224e-15,-230.466e-21,463.945e-18,123.973e-18,123.973e-18
160e-3,0,0,20,14e-9,0,165.983e-18,358.331e-3,2.1905e-6,-13.3998e-15,-449.146e-21,470.726e-18,127.363e-18,127.363e-18
180e-3,0,0,20,14e-9,0,169.365e-18,358.331e-3,4.2454e-6,-28.0578e-15,-871.364e-21,478.334e-18,131.167e-18,131.167e-18
200e-3,0,0,20,14e-9,0,173.292e-18,358.331e-3,8.1919e-6,-49.1358e-15,-1.6758e-18,487.797e-18,135.899e-18,135.899e-18
220e-3,0,0,20,14e-9,0,178.36e-18,358.331e-3,15.6774e-6,-79.7129e-15,-3.1717e-18,500.925e-18,142.462e-18,142.462e-18
240e-3,0,0,20,14e-9,0,185.49e-18,358.331e-3,29.5623e-6,-125.651e-15,-5.8346e-18,520.511e-18,152.256e-18,152.256e-18
260e-3,0,0,20,14e-9,0,195.798e-18,358.331e-3,54.3677e-6,-197.056e-15,-10.247e-18,549.952e-18,166.976e-18,166.976e-18
280e-3,0,0,20,14e-9,0,210.051e-18,358.331e-3,96.2214e-6,-309.456e-15,-16.8287e-18,591.621e-18,187.81e-18,187.81e-18
300e-3,0,0,20,14e-9,0,227.903e-18,358.331e-3,161.699e-6,-483.23e-15,-25.4492e-18,644.565e-18,214.283e-18,214.283e-18
320e-3,0,0,20,14e-9,0,247.807e-18,358.331e-3,255.804e-6,-740.809e-15,-35.3621e-18,704.201e-18,244.1e-18,244.1e-18
340e-3,0,0,20,14e-9,0,267.941e-18,358.331e-3,380.516e-6,-1.1037e-12,-45.654e-18,765.051e-18,274.526e-18,274.526e-18
360e-3,0,0,20,14e-9,0,287.109e-18,358.331e-3,534.861e-6,-1.5920e-12,-55.7e-18,823.48e-18,303.74e-18,303.74e-18
380e-3,0,0,20,14e-9,0,304.878e-18,358.331e-3,715.913e-6,-2.2252e-12,-65.2408e-18,878.1e-18,331.05e-18,331.05e-18
400e-3,0,0,20,14e-9,0,321.261e-18,358.331e-3,919.803e-6,-3.0243e-12,-74.237e-18,928.859e-18,356.429e-18,356.429e-18
420e-3,0,0,20,14e-9,0,336.432e-18,358.331e-3,1.1423e-3,-4.0128e-12,-82.7312e-18,976.188e-18,380.094e-18,380.094e-18
440e-3,0,0,20,14e-9,0,350.577e-18,358.331e-3,1.3795e-3,-5.2174e-12,-90.7775e-18,1.0205e-15,402.286e-18,402.286e-18
460e-3,0,0,20,14e-9,0,363.85e-18,358.331e-3,1.6274e-3,-6.6690e-12,-98.4179e-18,1.0624e-15,423.199e-18,423.199e-18
480e-3,0,0,20,14e-9,0,376.36e-18,358.331e-3,1.8827e-3,-8.4025e-12,-105.68e-18,1.1019e-15,442.971e-18,442.971e-18
500e-3,0,0,20,14e-9,0,388.186e-18,358.331e-3,2.1424e-3,-10.4581e-12,-112.578e-18,1.1393e-15,461.696e-18,461.696e-18
520e-3,0,0,20,14e-9,0,399.383e-18,358.331e-3,2.4039e-3,-12.8809e-12,-119.123e-18,1.1748e-15,479.436e-18,479.436e-18
540e-3,0,0,20,14e-9,0,409.988e-18,358.331e-3,2.6652e-3,-15.7224e-12,-125.318e-18,1.2084e-15,496.238e-18,496.238e-18
560e-3,0,0,20,14e-9,0,420.033e-18,358.331e-3,2.9244e-3,-19.0406e-12,-131.17e-18,1.2402e-15,512.134e-18,512.134e-18
580e-3,0,0,20,14e-9,0,429.542e-18,358.331e-3,3.1802e-3,-22.9009e-12,-136.684e-18,1.2703e-15,527.157e-18,527.157e-18
600e-3,0,0,20,14e-9,0,438.536e-18,358.331e-3,3.4316e-3,-27.377e-12,-141.866e-18,1.2986e-15,541.333e-18,541.333e-18
620e-3,0,0,20,14e-9,0,447.036e-18,358.331e-3,3.6778e-3,-32.552e-12,-146.725e-18,1.3253e-15,554.692e-18,554.692e-18
640e-3,0,0,20,14e-9,0,455.063e-18,358.331e-3,3.9182e-3,-38.5191e-12,-151.27e-18,1.3505e-15,567.265e-18,567.265e-18
660e-3,0,0,20,14e-9,0,462.637e-18,358.331e-3,4.1523e-3,-45.3832e-12,-155.514e-18,1.3741e-15,579.082e-18,579.082e-18
680e-3,0,0,20,14e-9,0,469.778e-18,358.331e-3,4.38e-3,-53.2618e-12,-159.467e-18,1.3963e-15,590.176e-18,590.176e-18
700e-3,0,0,20,14e-9,0,476.506e-18,358.331e-3,4.6010e-3,-62.2872e-12,-163.144e-18,1.4171e-15,600.581e-18,600.581e-18
720e-3,0,0,20,14e-9,0,482.842e-18,358.331e-3,4.8154e-3,-72.6071e-12,-166.558e-18,1.4366e-15,610.331e-18,610.331e-18
740e-3,0,0,20,14e-9,0,488.806e-18,358.331e-3,5.0231e-3,-84.3874e-12,-169.723e-18,1.4549e-15,619.461e-18,619.461e-18
760e-3,0,0,20,14e-9,0,494.419e-18,358.331e-3,5.2243e-3,-97.8138e-12,-172.654e-18,1.4720e-15,628.004e-18,628.004e-18
780e-3,0,0,20,14e-9,0,499.698e-18,358.331e-3,5.4190e-3,-113.094e-12,-175.365e-18,1.4879e-15,635.994e-18,635.994e-18
800e-3,0,0,20,14e-9,0,504.665e-18,358.331e-3,5.6075e-3,-130.461e-12,-177.869e-18,1.5029e-15,643.464e-18,643.464e-18
0,0,0,40,14e-9,0,281.258e-18,362.06e-3,18.677e-9,5.1376e-54,-3.7128e-21,838.247e-18,203.123e-18,203.123e-18
20e-3,0,0,40,14e-9,0,287.476e-18,362.06e-3,36.3714e-9,-16.2689e-15,-7.2656e-21,850.69e-18,209.345e-18,209.345e-18
40e-3,0,0,40,14e-9,0,293.825e-18,362.06e-3,70.8281e-9,-26.1414e-15,-14.2195e-21,863.402e-18,215.701e-18,215.701e-18
60e-3,0,0,40,14e-9,0,300.243e-18,362.06e-3,137.922e-9,-30.2589e-15,-27.8301e-21,876.267e-18,222.133e-18,222.133e-18
80e-3,0,0,40,14e-9,0,306.666e-18,362.06e-3,268.553e-9,-29.2514e-15,-54.4668e-21,889.165e-18,228.583e-18,228.583e-18
100e-3,0,0,40,14e-9,0,313.034e-18,362.06e-3,522.834e-9,-23.8084e-15,-106.58e-21,902.005e-18,235.003e-18,235.003e-18
120e-3,0,0,40,14e-9,0,319.312e-18,362.06e-3,1.0175e-6,-15.0492e-15,-208.459e-21,914.764e-18,241.382e-18,241.382e-18
140e-3,0,0,40,14e-9,0,325.515e-18,362.06e-3,1.9794e-6,-9.8198e-15,-407.319e-21,927.569e-18,247.784e-18,247.784e-18
160e-3,0,0,40,14e-9,0,331.758e-18,362.06e-3,3.8464e-6,-26.3008e-15,-794.265e-21,940.828e-18,254.414e-18,254.414e-18
